T48C4 1830:117.183   SEGGER J-Link V7.52a Log File
T48C4 1830:117.256   DLL Compiled: Jul 28 2021 11:08:12
T48C4 1830:117.270   Logging started @ 2026-04-22 01:52
T48C4 1830:117.280 - 945511.339ms
T48C4 1830:117.298 JLINK_SetWarnOutHandler(...)
T48C4 1830:117.309 - 0.016ms
T48C4 1830:117.322 JLINK_OpenEx(...)
T48C4 1830:119.249   Firmware: J-Link V9 compiled May  7 2021 16:26:12
T48C4 1830:119.727   Firmware: J-Link V9 compiled May  7 2021 16:26:12
T48C4 1830:119.919   Decompressing FW timestamp took 144 us
T48C4 1830:127.969   Hardware: V9.60
T48C4 1830:128.001   S/N: 69652321
T48C4 1830:128.018   OEM: SEGGER
T48C4 1830:128.037   Feature(s): RDI, GDB, FlashDL, FlashBP, JFlash
T48C4 1830:129.152   TELNET listener socket opened on port 19021
T48C4 1830:136.623   Device "BLUENRG_355XX" selected.
T48C4 1830:137.378   WEBSRV Starting webserver
T48C4 1830:137.577   WEBSRV Webserver running on local port 19080
T48C4 1830:144.783 - 27.483ms returns "O.K."
T48C4 1830:144.831 JLINK_GetEmuCaps()
T48C4 1830:144.845 - 0.019ms returns 0xB9FF7BBF
T48C4 1830:144.860 JLINK_TIF_GetAvailable(...)
T48C4 1830:145.236 - 0.412ms
T48C4 1830:145.296 JLINK_SetErrorOutHandler(...)
T48C4 1830:145.308 - 0.017ms
T48C4 1830:145.331 JLINK_ExecCommand("ProjectFile = "E:\PLATFORM\ST\BlueNRG(BT)\BlueNRG-LP\BSP\BLE_HID_Peripheral\Projects\BLE_Examples\BLE_HID_Peripheral\MDK-ARM\STEVAL-IDB011V1\JLinkSettings.ini"", ...). 
T48C4 1830:155.300   Device "BLUENRG_355XX" selected.
T48C4 1830:155.666 - 10.346ms returns 0x00
T48C4 1830:160.150 JLINK_ExecCommand("Device = BlueNRG-355", ...). 
T48C4 1830:164.961   Device "BLUENRG_355XX" selected.
T48C4 1830:165.395 - 5.232ms returns 0x00
T48C4 1830:165.420 JLINK_ExecCommand("DisableConnectionTimeout", ...). 
T48C4 1830:165.437 - 0.007ms returns 0x01
T48C4 1830:165.457 JLINK_GetHardwareVersion()
T48C4 1830:165.469 - 0.018ms returns 96000
T48C4 1830:165.484 JLINK_GetDLLVersion()
T48C4 1830:165.496 - 0.017ms returns 75201
T48C4 1830:165.510 JLINK_GetOEMString(...)
T48C4 1830:165.540 JLINK_GetFirmwareString(...)
T48C4 1830:165.552 - 0.017ms
T48C4 1830:187.734 JLINK_GetDLLVersion()
T48C4 1830:187.782 - 0.054ms returns 75201
T48C4 1830:187.804 JLINK_GetCompileDateTime()
T48C4 1830:187.817 - 0.019ms
T48C4 1830:192.690 JLINK_GetFirmwareString(...)
T48C4 1830:192.716 - 0.033ms
T48C4 1830:198.267 JLINK_GetHardwareVersion()
T48C4 1830:198.301 - 0.041ms returns 96000
T48C4 1830:205.702 JLINK_GetSN()
T48C4 1830:205.735 - 0.039ms returns 69652321
T48C4 1830:210.550 JLINK_GetOEMString(...)
T48C4 1830:225.995 JLINK_TIF_Select(JLINKARM_TIF_SWD)
T48C4 1830:226.821 - 0.843ms returns 0x00
T48C4 1830:226.855 JLINK_HasError()
T48C4 1830:226.876 JLINK_SetSpeed(5000)
T48C4 1830:226.983 - 0.120ms
T48C4 1830:227.009 JLINK_GetId()
T48C4 1830:233.770   Found SW-DP with ID 0x0BC11477
T48C4 1830:241.683   DPIDR: 0x0BC11477
T48C4 1830:248.302   Scanning AP map to find all available APs
T48C4 1830:253.860   AP[1]: Stopped AP scan as end of AP map has been reached
T48C4 1830:258.599   AP[0]: AHB-AP (IDR: 0x04770031)
T48C4 1830:265.910   Iterating through AP map to find AHB-AP to use
T48C4 1830:271.590   AP[0]: Core found
T48C4 1830:277.838   AP[0]: AHB-AP ROM base: 0xF0000000
T48C4 1830:284.181   CPUID register: 0x410CC601. Implementer code: 0x41 (ARM)
T48C4 1830:289.010   Found Cortex-M0 r0p1, Little endian.
T48C4 1830:390.498   -- Max. mem block: 0x00010C40
T48C4 1830:390.835   CPU_ReadMem(4 bytes @ 0xE000EDF0)
T48C4 1830:391.390   CPU_WriteMem(4 bytes @ 0xE000EDF0)
T48C4 1830:392.011   CPU_ReadMem(4 bytes @ 0xE0002000)
T48C4 1830:398.220   FPUnit: 4 code (BP) slots and 0 literal slots
T48C4 1830:398.259   CPU_ReadMem(4 bytes @ 0xE000EDFC)
T48C4 1830:398.838   CPU_WriteMem(4 bytes @ 0xE000EDFC)
T48C4 1830:399.260   CPU_ReadMem(4 bytes @ 0xE0001000)
T48C4 1830:399.678   CPU_WriteMem(4 bytes @ 0xE0001000)
T48C4 1830:410.367   CoreSight components:
T48C4 1830:414.382   ROMTbl[0] @ F0000000
T48C4 1830:414.432   CPU_ReadMem(64 bytes @ 0xF0000000)
T48C4 1830:415.136   CPU_ReadMem(32 bytes @ 0xE00FFFE0)
T48C4 1830:420.402   ROMTbl[0][0]: E00FF000, CID: B105100D, PID: 000BB4C0 ROM Table
T48C4 1830:424.641   ROMTbl[1] @ E00FF000
T48C4 1830:424.676   CPU_ReadMem(64 bytes @ 0xE00FF000)
T48C4 1830:425.848   CPU_ReadMem(32 bytes @ 0xE000EFE0)
T48C4 1830:434.055   ROMTbl[1][0]: E000E000, CID: B105E00D, PID: 000BB008 SCS
T48C4 1830:434.097   CPU_ReadMem(32 bytes @ 0xE0001FE0)
T48C4 1830:441.312   ROMTbl[1][1]: E0001000, CID: B105E00D, PID: 000BB00A DWT
T48C4 1830:441.356   CPU_ReadMem(32 bytes @ 0xE0002FE0)
T48C4 1830:448.115   ROMTbl[1][2]: E0002000, CID: B105E00D, PID: 000BB00B FPB
T48C4 1830:448.185   CPU_ReadMem(4 bytes @ 0x10040000)
T48C4 1830:454.162   SetupTarget() start
T48C4 1830:454.207    J-Link Script File: Executing SetupTarget()
T48C4 1830:454.232   CPU_ReadMem(1 bytes @ 0x10040000)
T48C4 1830:459.300   UnSec r0x00000000
T48C4 1830:570.307   UnSec v0x0F642E00
T48C4 1830:677.267   SetupTarget() end
T48C4 1830:677.789 - 450.798ms returns 0x0BC11477
T48C4 1830:677.830 JLINK_GetDLLVersion()
T48C4 1830:677.846 - 0.022ms returns 75201
T48C4 1830:677.869 JLINK_CORE_GetFound()
T48C4 1830:677.883 - 0.021ms returns 0x60000FF
T48C4 1830:677.904 JLINK_GetDebugInfo(0x100 = JLINKARM_ROM_TABLE_ADDR_INDEX)
T48C4 1830:677.921   Value=0xF0000000
T48C4 1830:677.941 - 0.043ms returns 0
T48C4 1830:687.546 JLINK_GetDebugInfo(0x100 = JLINKARM_ROM_TABLE_ADDR_INDEX)
T48C4 1830:687.577   Value=0xF0000000
T48C4 1830:687.592 - 0.051ms returns 0
T48C4 1830:687.604 JLINK_GetDebugInfo(0x101 = JLINKARM_DEBUG_INFO_ETM_ADDR_INDEX)
T48C4 1830:687.615   Value=0x00000000
T48C4 1830:687.629 - 0.029ms returns 0
T48C4 1830:687.646 JLINK_ReadMemEx(0xE0041FF0, 0x10 Bytes, Flags = 0x02000004)
T48C4 1830:687.667   CPU_ReadMem(16 bytes @ 0xE0041FF0)
T48C4 1830:688.282   Data:  00 00 00 00 00 00 00 00 00 00 00 00 00 00 00 00
T48C4 1830:688.305 - 0.664ms returns 16 (0x10)
T48C4 1830:688.320 JLINK_GetDebugInfo(0x102 = JLINKARM_DEBUG_INFO_MTB_ADDR_INDEX)
T48C4 1830:688.331   Value=0x00000000
T48C4 1830:688.345 - 0.029ms returns 0
T48C4 1830:688.356 JLINK_GetDebugInfo(0x103 = JLINKARM_DEBUG_INFO_TPIU_ADDR_INDEX)
T48C4 1830:688.366   Value=0x00000000
T48C4 1830:688.380 - 0.029ms returns 0
T48C4 1830:688.392 JLINK_ReadMemEx(0xE0040FF0, 0x10 Bytes, Flags = 0x02000004)
T48C4 1830:688.406   CPU_ReadMem(16 bytes @ 0xE0040FF0)
T48C4 1830:689.162   Data:  00 00 00 00 00 00 00 00 00 00 00 00 00 00 00 00
T48C4 1830:689.184 - 0.796ms returns 16 (0x10)
T48C4 1830:689.198 JLINK_GetDebugInfo(0x104 = JLINKARM_DEBUG_INFO_ITM_ADDR_INDEX)
T48C4 1830:689.209   Value=0xE0000000
T48C4 1830:689.223 - 0.029ms returns 0
T48C4 1830:689.235 JLINK_GetDebugInfo(0x105 = JLINKARM_DEBUG_INFO_DWT_ADDR_INDEX)
T48C4 1830:689.245   Value=0xE0001000
T48C4 1830:689.259 - 0.029ms returns 0
T48C4 1830:689.270 JLINK_GetDebugInfo(0x106 = JLINKARM_DEBUG_INFO_FPB_ADDR_INDEX)
T48C4 1830:689.280   Value=0xE0002000
T48C4 1830:689.294 - 0.029ms returns 0
T48C4 1830:689.306 JLINK_GetDebugInfo(0x107 = JLINKARM_DEBUG_INFO_NVIC_ADDR_INDEX)
T48C4 1830:689.316   Value=0xE000E000
T48C4 1830:689.330 - 0.028ms returns 0
T48C4 1830:689.341 JLINK_GetDebugInfo(0x10C = JLINKARM_DEBUG_INFO_DBG_ADDR_INDEX)
T48C4 1830:689.351   Value=0xE000EDF0
T48C4 1830:689.365 - 0.028ms returns 0
T48C4 1830:689.377 JLINK_GetDebugInfo(0x01 = Unknown)
T48C4 1830:689.387   Value=0x00000000
T48C4 1830:689.401 - 0.029ms returns 0
T48C4 1830:689.415 JLINK_ReadMemU32(0xE000ED00, 0x1 Items)
T48C4 1830:689.430   CPU_ReadMem(4 bytes @ 0xE000ED00)
T48C4 1830:690.181   Data:  01 C6 0C 41
T48C4 1830:690.203   Debug reg: CPUID
T48C4 1830:690.218 - 0.807ms returns 1 (0x1)
T48C4 1830:690.232 JLINK_GetDebugInfo(0x10F = JLINKARM_DEBUG_INFO_HAS_CORTEX_M_SECURITY_EXT_INDEX)
T48C4 1830:690.243   Value=0x00000000
T48C4 1830:690.257 - 0.029ms returns 0
T48C4 1830:690.269 JLINK_HasError()
T48C4 1830:690.283 JLINK_SetResetType(JLINKARM_CM3_RESET_TYPE_NORMAL)
T48C4 1830:690.294 - 0.015ms returns JLINKARM_CM3_RESET_TYPE_NORMAL
T48C4 1830:690.306 JLINK_Reset()
T48C4 1830:694.407   ResetTarget() start
T48C4 1830:694.448    J-Link Script File: Executing ResetTarget()
T48C4 1830:698.778   Executing ResetTarget()
T48C4 1830:698.825   CPU_ReadMem(4 bytes @ 0xE0002000)
T48C4 1830:699.331   CPU_ReadMem(4 bytes @ 0xE0002008)
T48C4 1830:699.908   CPU_ReadMem(4 bytes @ 0x10040004)
T48C4 1830:700.450   CPU is running
T48C4 1830:700.487   CPU_WriteMem(4 bytes @ 0xE0002000)
T48C4 1830:701.214   CPU is running
T48C4 1830:701.240   CPU_WriteMem(4 bytes @ 0xE0002008)
T48C4 1830:701.650   CPU is running
T48C4 1830:701.674   CPU_WriteMem(4 bytes @ 0xE000ED0C)
T48C4 1830:806.816   CPU_WriteMem(4 bytes @ 0xE0002008)
T48C4 1830:807.426   CPU_WriteMem(4 bytes @ 0xE0002000)
T48C4 1830:812.283   ResetTarget() end
T48C4 1830:814.731   CPU_WriteMem(4 bytes @ 0xE0002000)
T48C4 1830:815.369   CPU_ReadMem(4 bytes @ 0xE000EDFC)
T48C4 1830:815.936   CPU_ReadMem(4 bytes @ 0xE0001000)
T48C4 1830:816.497   CPU_WriteMem(4 bytes @ 0xE0001000)
T48C4 1830:816.981 - 126.688ms
T48C4 1830:817.028 JLINK_Halt()
T48C4 1830:817.042 - 0.033ms returns 0x00
T48C4 1830:817.086 JLINK_ReadMemU32(0xE000EDF0, 0x1 Items)
T48C4 1830:817.105   CPU_ReadMem(4 bytes @ 0xE000EDF0)
T48C4 1830:817.626   Data:  03 00 03 00
T48C4 1830:817.652   Debug reg: DHCSR
T48C4 1830:817.668 - 0.587ms returns 1 (0x1)
T48C4 1830:817.692 JLINK_WriteU32_64(0xE000EDF0, 0xA05F0003)
T48C4 1830:817.705   Debug reg: DHCSR
T48C4 1830:818.023   CPU_WriteMem(4 bytes @ 0xE000EDF0)
T48C4 1830:818.419 - 0.737ms returns 0 (0x00000000)
T48C4 1830:818.442 JLINK_WriteU32_64(0xE000EDFC, 0x01000000)
T48C4 1830:818.472   Debug reg: DEMCR
T48C4 1830:818.493   CPU_WriteMem(4 bytes @ 0xE000EDFC)
T48C4 1830:818.902 - 0.469ms returns 0 (0x00000000)
T48C4 1830:840.692 JLINK_GetHWStatus(...)
T48C4 1830:841.153 - 0.478ms returns 0
T48C4 1830:863.137 JLINK_GetNumBPUnits(Type = 0xFFFFFF00)
T48C4 1830:863.172 - 0.041ms returns 0x04
T48C4 1830:863.186 JLINK_GetNumBPUnits(Type = 0xF0)
T48C4 1830:863.198 - 0.017ms returns 0x2000
T48C4 1830:863.213 JLINK_GetNumWPUnits()
T48C4 1830:863.224 - 0.017ms returns 2
T48C4 1830:876.718 JLINK_GetSpeed()
T48C4 1830:876.752 - 0.040ms returns 4000
T48C4 1830:888.702 JLINK_ReadMemU32(0xE000E004, 0x1 Items)
T48C4 1830:888.744   CPU_ReadMem(4 bytes @ 0xE000E004)
T48C4 1830:889.362   Data:  00 00 00 00
T48C4 1830:889.390 - 0.693ms returns 1 (0x1)
T48C4 1830:889.410 JLINK_Halt()
T48C4 1830:889.422 - 0.017ms returns 0x00
T48C4 1830:889.442 JLINK_IsHalted()
T48C4 1830:889.455 - 0.018ms returns TRUE
T48C4 1830:895.442 JLINK_WriteMem(0x20001000, 0x104 Bytes, ...)
T48C4 1830:895.465   Data:  00 BE 0A E0 0D 78 2D 06 68 40 08 24 40 00 00 D3 ...
T48C4 1830:895.780   CPU_WriteMem(260 bytes @ 0x20001000)
T48C4 1830:897.333 - 1.902ms returns 0x104
T48C4 1830:897.380 JLINK_HasError()
T48C4 1830:897.398 JLINK_WriteReg(R0, 0x10040000)
T48C4 1830:897.413 - 0.020ms returns 0
T48C4 1830:897.427 JLINK_WriteReg(R1, 0x00B71B00)
T48C4 1830:897.439 - 0.017ms returns 0
T48C4 1830:897.453 JLINK_WriteReg(R2, 0x00000001)
T48C4 1830:897.466 - 0.019ms returns 0
T48C4 1830:897.480 JLINK_WriteReg(R3, 0x00000000)
T48C4 1830:897.491 - 0.017ms returns 0
T48C4 1830:897.505 JLINK_WriteReg(R4, 0x00000000)
T48C4 1830:897.517 - 0.017ms returns 0
T48C4 1830:897.530 JLINK_WriteReg(R5, 0x00000000)
T48C4 1830:897.542 - 0.017ms returns 0
T48C4 1830:897.555 JLINK_WriteReg(R6, 0x00000000)
T48C4 1830:897.567 - 0.017ms returns 0
T48C4 1830:897.581 JLINK_WriteReg(R7, 0x00000000)
T48C4 1830:897.593 - 0.017ms returns 0
T48C4 1830:897.607 JLINK_WriteReg(R8, 0x00000000)
T48C4 1830:897.619 - 0.017ms returns 0
T48C4 1830:897.632 JLINK_WriteReg(R9, 0x20001100)
T48C4 1830:897.644 - 0.017ms returns 0
T48C4 1830:897.658 JLINK_WriteReg(R10, 0x00000000)
T48C4 1830:897.670 - 0.017ms returns 0
T48C4 1830:897.683 JLINK_WriteReg(R11, 0x00000000)
T48C4 1830:897.695 - 0.017ms returns 0
T48C4 1830:897.708 JLINK_WriteReg(R12, 0x00000000)
T48C4 1830:897.720 - 0.017ms returns 0
T48C4 1830:897.733 JLINK_WriteReg(R13 (SP), 0x20003000)
T48C4 1830:897.746 - 0.022ms returns 0
T48C4 1830:897.765 JLINK_WriteReg(R14, 0x20001001)
T48C4 1830:897.777 - 0.017ms returns 0
T48C4 1830:897.790 JLINK_WriteReg(R15 (PC), 0x20001038)
T48C4 1830:897.802 - 0.018ms returns 0
T48C4 1830:897.816 JLINK_WriteReg(XPSR, 0x01000000)
T48C4 1830:897.828 - 0.017ms returns 0
T48C4 1830:897.841 JLINK_WriteReg(MSP, 0x20003000)
T48C4 1830:897.853 - 0.017ms returns 0
T48C4 1830:897.866 JLINK_WriteReg(PSP, 0x20003000)
T48C4 1830:897.880 - 0.018ms returns 0
T48C4 1830:897.893 JLINK_WriteReg(CFBP, 0x00000000)
T48C4 1830:897.905 - 0.017ms returns 0
T48C4 1830:897.919 JLINK_SetBPEx(Addr = 0x20001000, Type = 0xFFFFFFF2)
T48C4 1830:897.936   CPU_ReadMem(2 bytes @ 0x20001000)
T48C4 1830:898.339 - 0.435ms returns 0x00000001
T48C4 1830:898.370 JLINK_Go()
T48C4 1830:898.387   CPU_WriteMem(2 bytes @ 0x20001000)
T48C4 1830:898.923   CPU_ReadMem(4 bytes @ 0xE0001000)
T48C4 1830:899.388   CPU_WriteMem(4 bytes @ 0xE0001000)
T48C4 1830:899.449   CPU_WriteMem(4 bytes @ 0xE0002008)
T48C4 1830:899.469   CPU_WriteMem(4 bytes @ 0xE000200C)
T48C4 1830:899.490   CPU_WriteMem(4 bytes @ 0xE0002010)
T48C4 1830:899.510   CPU_WriteMem(4 bytes @ 0xE0002014)
T48C4 1830:900.533   CPU_WriteMem(4 bytes @ 0xE0001004)
T48C4 1830:903.747 - 5.388ms
T48C4 1830:903.769 JLINK_IsHalted()
T48C4 1830:906.022   CPU_ReadMem(2 bytes @ 0x20001000)
T48C4 1830:906.489 - 2.729ms returns TRUE
T48C4 1830:906.511 JLINK_ReadReg(R15 (PC))
T48C4 1830:906.524 - 0.018ms returns 0x20001000
T48C4 1830:906.538 JLINK_ClrBPEx(BPHandle = 0x00000001)
T48C4 1830:906.550 - 0.016ms returns 0x00
T48C4 1830:906.562 JLINK_ReadReg(R0)
T48C4 1830:906.573 - 0.016ms returns 0x00000000
T48C4 1830:907.014 JLINK_HasError()
T48C4 1830:907.034 JLINK_WriteReg(R0, 0x10040000)
T48C4 1830:907.047 - 0.017ms returns 0
T48C4 1830:907.060 JLINK_WriteReg(R1, 0x00000800)
T48C4 1830:907.071 - 0.016ms returns 0
T48C4 1830:907.083 JLINK_WriteReg(R2, 0x000000FF)
T48C4 1830:907.093 - 0.015ms returns 0
T48C4 1830:907.105 JLINK_WriteReg(R3, 0x00000000)
T48C4 1830:907.115 - 0.015ms returns 0
T48C4 1830:907.127 JLINK_WriteReg(R4, 0x00000000)
T48C4 1830:907.137 - 0.015ms returns 0
T48C4 1830:907.149 JLINK_WriteReg(R5, 0x00000000)
T48C4 1830:907.159 - 0.015ms returns 0
T48C4 1830:907.171 JLINK_WriteReg(R6, 0x00000000)
T48C4 1830:907.181 - 0.033ms returns 0
T48C4 1830:907.211 JLINK_WriteReg(R7, 0x00000000)
T48C4 1830:907.222 - 0.016ms returns 0
T48C4 1830:907.235 JLINK_WriteReg(R8, 0x00000000)
T48C4 1830:907.258 - 0.028ms returns 0
T48C4 1830:907.270 JLINK_WriteReg(R9, 0x20001100)
T48C4 1830:907.280 - 0.015ms returns 0
T48C4 1830:907.292 JLINK_WriteReg(R10, 0x00000000)
T48C4 1830:907.302 - 0.015ms returns 0
T48C4 1830:907.314 JLINK_WriteReg(R11, 0x00000000)
T48C4 1830:907.324 - 0.015ms returns 0
T48C4 1830:907.336 JLINK_WriteReg(R12, 0x00000000)
T48C4 1830:907.346 - 0.015ms returns 0
T48C4 1830:907.358 JLINK_WriteReg(R13 (SP), 0x20003000)
T48C4 1830:907.369 - 0.016ms returns 0
T48C4 1830:907.381 JLINK_WriteReg(R14, 0x20001001)
T48C4 1830:907.391 - 0.015ms returns 0
T48C4 1830:907.403 JLINK_WriteReg(R15 (PC), 0x20001020)
T48C4 1830:907.413 - 0.015ms returns 0
T48C4 1830:907.425 JLINK_WriteReg(XPSR, 0x01000000)
T48C4 1830:907.435 - 0.015ms returns 0
T48C4 1830:907.447 JLINK_WriteReg(MSP, 0x20003000)
T48C4 1830:907.457 - 0.015ms returns 0
T48C4 1830:907.468 JLINK_WriteReg(PSP, 0x20003000)
T48C4 1830:907.479 - 0.015ms returns 0
T48C4 1830:907.490 JLINK_WriteReg(CFBP, 0x00000000)
T48C4 1830:907.501 - 0.015ms returns 0
T48C4 1830:907.513 JLINK_SetBPEx(Addr = 0x20001000, Type = 0xFFFFFFF2)
T48C4 1830:907.524 - 0.016ms returns 0x00000002
T48C4 1830:907.536 JLINK_Go()
T48C4 1830:907.550   CPU_ReadMem(4 bytes @ 0xE0001000)
T48C4 1830:908.076   CPU_WriteMem(4 bytes @ 0xE0001000)
T48C4 1830:911.625 - 4.099ms
T48C4 1830:911.644 JLINK_IsHalted()
T48C4 1830:913.955   CPU_ReadMem(2 bytes @ 0x20001000)
T48C4 1830:914.310 - 2.677ms returns TRUE
T48C4 1830:914.344 JLINK_ReadReg(R15 (PC))
T48C4 1830:914.356 - 0.016ms returns 0x20001000
T48C4 1830:914.417 JLINK_ClrBPEx(BPHandle = 0x00000002)
T48C4 1830:914.430 - 0.018ms returns 0x00
T48C4 1830:914.442 JLINK_ReadReg(R0)
T48C4 1830:914.452 - 0.015ms returns 0x00000001
T48C4 1830:914.464 JLINK_HasError()
T48C4 1830:914.476 JLINK_WriteReg(R0, 0x10040000)
T48C4 1830:914.487 - 0.015ms returns 0
T48C4 1830:914.498 JLINK_WriteReg(R1, 0x00000800)
T48C4 1830:914.508 - 0.015ms returns 0
T48C4 1830:914.520 JLINK_WriteReg(R2, 0x000000FF)
T48C4 1830:914.530 - 0.014ms returns 0
T48C4 1830:914.541 JLINK_WriteReg(R3, 0x00000000)
T48C4 1830:914.554 - 0.017ms returns 0
T48C4 1830:914.565 JLINK_WriteReg(R4, 0x00000000)
T48C4 1830:914.575 - 0.014ms returns 0
T48C4 1830:914.587 JLINK_WriteReg(R5, 0x00000000)
T48C4 1830:914.597 - 0.032ms returns 0
T48C4 1830:914.626 JLINK_WriteReg(R6, 0x00000000)
T48C4 1830:914.637 - 0.016ms returns 0
T48C4 1830:914.649 JLINK_WriteReg(R7, 0x00000000)
T48C4 1830:914.660 - 0.016ms returns 0
T48C4 1830:914.672 JLINK_WriteReg(R8, 0x00000000)
T48C4 1830:914.683 - 0.016ms returns 0
T48C4 1830:914.695 JLINK_WriteReg(R9, 0x20001100)
T48C4 1830:914.706 - 0.016ms returns 0
T48C4 1830:914.734 JLINK_WriteReg(R10, 0x00000000)
T48C4 1830:914.744 - 0.015ms returns 0
T48C4 1830:914.756 JLINK_WriteReg(R11, 0x00000000)
T48C4 1830:914.766 - 0.015ms returns 0
T48C4 1830:914.777 JLINK_WriteReg(R12, 0x00000000)
T48C4 1830:914.787 - 0.014ms returns 0
T48C4 1830:914.799 JLINK_WriteReg(R13 (SP), 0x20003000)
T48C4 1830:914.809 - 0.015ms returns 0
T48C4 1830:914.820 JLINK_WriteReg(R14, 0x20001001)
T48C4 1830:914.830 - 0.015ms returns 0
T48C4 1830:914.842 JLINK_WriteReg(R15 (PC), 0x20001072)
T48C4 1830:914.852 - 0.014ms returns 0
T48C4 1830:914.863 JLINK_WriteReg(XPSR, 0x01000000)
T48C4 1830:914.875 - 0.017ms returns 0
T48C4 1830:914.887 JLINK_WriteReg(MSP, 0x20003000)
T48C4 1830:914.897 - 0.014ms returns 0
T48C4 1830:914.908 JLINK_WriteReg(PSP, 0x20003000)
T48C4 1830:914.918 - 0.014ms returns 0
T48C4 1830:914.929 JLINK_WriteReg(CFBP, 0x00000000)
T48C4 1830:914.940 - 0.015ms returns 0
T48C4 1830:914.951 JLINK_SetBPEx(Addr = 0x20001000, Type = 0xFFFFFFF2)
T48C4 1830:914.962 - 0.016ms returns 0x00000003
T48C4 1830:914.975 JLINK_Go()
T48C4 1830:914.989   CPU_ReadMem(4 bytes @ 0xE0001000)
T48C4 1830:915.331   CPU_WriteMem(4 bytes @ 0xE0001000)
T48C4 1830:917.692 - 2.734ms
T48C4 1830:917.721 JLINK_IsHalted()
T48C4 1830:918.093 - 0.408ms returns FALSE
T48C4 1830:918.142 JLINK_HasError()
T48C4 1830:953.055 JLINK_IsHalted()
T48C4 1830:955.489   CPU_ReadMem(2 bytes @ 0x20001000)
T48C4 1830:955.922 - 2.878ms returns TRUE
T48C4 1830:955.944 JLINK_ReadReg(R15 (PC))
T48C4 1830:955.959 - 0.021ms returns 0x20001000
T48C4 1830:955.974 JLINK_ClrBPEx(BPHandle = 0x00000003)
T48C4 1830:955.986 - 0.018ms returns 0x00
T48C4 1830:956.000 JLINK_ReadReg(R0)
T48C4 1830:956.013 - 0.018ms returns 0x00000000
T48C4 1830:956.767 JLINK_HasError()
T48C4 1830:956.789 JLINK_WriteReg(R0, 0x10040800)
T48C4 1830:956.802 - 0.018ms returns 0
T48C4 1830:956.815 JLINK_WriteReg(R1, 0x00000800)
T48C4 1830:956.827 - 0.016ms returns 0
T48C4 1830:956.839 JLINK_WriteReg(R2, 0x000000FF)
T48C4 1830:956.851 - 0.016ms returns 0
T48C4 1830:956.863 JLINK_WriteReg(R3, 0x00000000)
T48C4 1830:956.874 - 0.016ms returns 0
T48C4 1830:956.887 JLINK_WriteReg(R4, 0x00000000)
T48C4 1830:956.898 - 0.016ms returns 0
T48C4 1830:956.911 JLINK_WriteReg(R5, 0x00000000)
T48C4 1830:956.922 - 0.016ms returns 0
T48C4 1830:956.934 JLINK_WriteReg(R6, 0x00000000)
T48C4 1830:956.946 - 0.016ms returns 0
T48C4 1830:956.958 JLINK_WriteReg(R7, 0x00000000)
T48C4 1830:956.969 - 0.016ms returns 0
T48C4 1830:956.982 JLINK_WriteReg(R8, 0x00000000)
T48C4 1830:956.993 - 0.016ms returns 0
T48C4 1830:957.006 JLINK_WriteReg(R9, 0x20001100)
T48C4 1830:957.017 - 0.016ms returns 0
T48C4 1830:957.030 JLINK_WriteReg(R10, 0x00000000)
T48C4 1830:957.041 - 0.016ms returns 0
T48C4 1830:957.054 JLINK_WriteReg(R11, 0x00000000)
T48C4 1830:957.065 - 0.016ms returns 0
T48C4 1830:957.078 JLINK_WriteReg(R12, 0x00000000)
T48C4 1830:957.090 - 0.021ms returns 0
T48C4 1830:957.110 JLINK_WriteReg(R13 (SP), 0x20003000)
T48C4 1830:957.122 - 0.017ms returns 0
T48C4 1830:957.134 JLINK_WriteReg(R14, 0x20001001)
T48C4 1830:957.146 - 0.016ms returns 0
T48C4 1830:957.158 JLINK_WriteReg(R15 (PC), 0x20001020)
T48C4 1830:957.169 - 0.016ms returns 0
T48C4 1830:957.182 JLINK_WriteReg(XPSR, 0x01000000)
T48C4 1830:957.193 - 0.016ms returns 0
T48C4 1830:957.206 JLINK_WriteReg(MSP, 0x20003000)
T48C4 1830:957.217 - 0.016ms returns 0
T48C4 1830:957.230 JLINK_WriteReg(PSP, 0x20003000)
T48C4 1830:957.241 - 0.016ms returns 0
T48C4 1830:957.253 JLINK_WriteReg(CFBP, 0x00000000)
T48C4 1830:957.264 - 0.016ms returns 0
T48C4 1830:957.277 JLINK_SetBPEx(Addr = 0x20001000, Type = 0xFFFFFFF2)
T48C4 1830:957.289 - 0.017ms returns 0x00000004
T48C4 1830:957.303 JLINK_Go()
T48C4 1830:957.320   CPU_ReadMem(4 bytes @ 0xE0001000)
T48C4 1830:957.735   CPU_WriteMem(4 bytes @ 0xE0001000)
T48C4 1830:960.378 - 3.087ms
T48C4 1830:960.400 JLINK_IsHalted()
T48C4 1830:962.322   CPU_ReadMem(2 bytes @ 0x20001000)
T48C4 1830:962.701 - 2.311ms returns TRUE
T48C4 1830:962.722 JLINK_ReadReg(R15 (PC))
T48C4 1830:962.734 - 0.018ms returns 0x20001000
T48C4 1830:962.748 JLINK_ClrBPEx(BPHandle = 0x00000004)
T48C4 1830:962.760 - 0.017ms returns 0x00
T48C4 1830:962.774 JLINK_ReadReg(R0)
T48C4 1830:962.785 - 0.017ms returns 0x00000001
T48C4 1830:962.798 JLINK_HasError()
T48C4 1830:962.811 JLINK_WriteReg(R0, 0x10040800)
T48C4 1830:962.823 - 0.017ms returns 0
T48C4 1830:962.836 JLINK_WriteReg(R1, 0x00000800)
T48C4 1830:962.849 - 0.019ms returns 0
T48C4 1830:962.862 JLINK_WriteReg(R2, 0x000000FF)
T48C4 1830:962.874 - 0.017ms returns 0
T48C4 1830:962.887 JLINK_WriteReg(R3, 0x00000000)
T48C4 1830:962.898 - 0.016ms returns 0
T48C4 1830:962.911 JLINK_WriteReg(R4, 0x00000000)
T48C4 1830:962.922 - 0.016ms returns 0
T48C4 1830:962.935 JLINK_WriteReg(R5, 0x00000000)
T48C4 1830:962.946 - 0.016ms returns 0
T48C4 1830:962.960 JLINK_WriteReg(R6, 0x00000000)
T48C4 1830:962.971 - 0.016ms returns 0
T48C4 1830:962.984 JLINK_WriteReg(R7, 0x00000000)
T48C4 1830:962.995 - 0.017ms returns 0
T48C4 1830:963.008 JLINK_WriteReg(R8, 0x00000000)
T48C4 1830:963.019 - 0.016ms returns 0
T48C4 1830:963.032 JLINK_WriteReg(R9, 0x20001100)
T48C4 1830:963.044 - 0.017ms returns 0
T48C4 1830:963.057 JLINK_WriteReg(R10, 0x00000000)
T48C4 1830:963.068 - 0.016ms returns 0
T48C4 1830:963.081 JLINK_WriteReg(R11, 0x00000000)
T48C4 1830:963.092 - 0.016ms returns 0
T48C4 1830:963.104 JLINK_WriteReg(R12, 0x00000000)
T48C4 1830:963.115 - 0.016ms returns 0
T48C4 1830:963.128 JLINK_WriteReg(R13 (SP), 0x20003000)
T48C4 1830:963.140 - 0.017ms returns 0
T48C4 1830:963.152 JLINK_WriteReg(R14, 0x20001001)
T48C4 1830:963.164 - 0.016ms returns 0
T48C4 1830:963.176 JLINK_WriteReg(R15 (PC), 0x20001072)
T48C4 1830:963.187 - 0.016ms returns 0
T48C4 1830:963.200 JLINK_WriteReg(XPSR, 0x01000000)
T48C4 1830:963.211 - 0.016ms returns 0
T48C4 1830:963.224 JLINK_WriteReg(MSP, 0x20003000)
T48C4 1830:963.235 - 0.016ms returns 0
T48C4 1830:963.248 JLINK_WriteReg(PSP, 0x20003000)
T48C4 1830:963.259 - 0.016ms returns 0
T48C4 1830:963.271 JLINK_WriteReg(CFBP, 0x00000000)
T48C4 1830:963.282 - 0.016ms returns 0
T48C4 1830:963.295 JLINK_SetBPEx(Addr = 0x20001000, Type = 0xFFFFFFF2)
T48C4 1830:963.307 - 0.017ms returns 0x00000005
T48C4 1830:963.320 JLINK_Go()
T48C4 1830:963.336   CPU_ReadMem(4 bytes @ 0xE0001000)
T48C4 1830:963.666   CPU_WriteMem(4 bytes @ 0xE0001000)
T48C4 1830:966.124 - 2.828ms
T48C4 1830:966.162 JLINK_IsHalted()
T48C4 1830:966.521 - 0.368ms returns FALSE
T48C4 1830:966.541 JLINK_HasError()
T48C4 1830:970.101 JLINK_IsHalted()
T48C4 1830:970.452 - 0.379ms returns FALSE
T48C4 1830:970.472 JLINK_HasError()
T48C4 1830:972.037 JLINK_IsHalted()
T48C4 1830:972.437 - 0.411ms returns FALSE
T48C4 1830:972.456 JLINK_HasError()
T48C4 1830:974.536 JLINK_IsHalted()
T48C4 1830:974.992 - 0.466ms returns FALSE
T48C4 1830:975.011 JLINK_HasError()
T48C4 1830:976.929 JLINK_IsHalted()
T48C4 1830:977.361 - 0.454ms returns FALSE
T48C4 1830:977.408 JLINK_HasError()
T48C4 1830:978.926 JLINK_IsHalted()
T48C4 1830:979.517 - 0.612ms returns FALSE
T48C4 1830:979.559 JLINK_HasError()
T48C4 1830:980.810 JLINK_IsHalted()
T48C4 1830:981.314 - 0.526ms returns FALSE
T48C4 1830:981.356 JLINK_HasError()
T48C4 1830:982.921 JLINK_IsHalted()
T48C4 1830:983.525 - 0.631ms returns FALSE
T48C4 1830:983.573 JLINK_HasError()
T48C4 1830:984.927 JLINK_IsHalted()
T48C4 1830:985.494 - 0.589ms returns FALSE
T48C4 1830:985.536 JLINK_HasError()
T48C4 1830:986.888 JLINK_IsHalted()
T48C4 1830:987.405 - 0.538ms returns FALSE
T48C4 1830:987.446 JLINK_HasError()
T48C4 1830:988.866 JLINK_IsHalted()
T48C4 1830:991.247   CPU_ReadMem(2 bytes @ 0x20001000)
T48C4 1830:991.773 - 2.929ms returns TRUE
T48C4 1830:991.816 JLINK_ReadReg(R15 (PC))
T48C4 1830:991.843 - 0.038ms returns 0x20001000
T48C4 1830:991.872 JLINK_ClrBPEx(BPHandle = 0x00000005)
T48C4 1830:991.895 - 0.035ms returns 0x00
T48C4 1830:991.922 JLINK_ReadReg(R0)
T48C4 1830:991.946 - 0.034ms returns 0x00000000
T48C4 1830:995.736 JLINK_HasError()
T48C4 1830:995.768 JLINK_WriteReg(R0, 0x10041000)
T48C4 1830:995.786 - 0.023ms returns 0
T48C4 1830:995.800 JLINK_WriteReg(R1, 0x00000800)
T48C4 1830:995.811 - 0.016ms returns 0
T48C4 1830:995.824 JLINK_WriteReg(R2, 0x000000FF)
T48C4 1830:995.835 - 0.016ms returns 0
T48C4 1830:995.847 JLINK_WriteReg(R3, 0x00000000)
T48C4 1830:995.858 - 0.016ms returns 0
T48C4 1830:995.870 JLINK_WriteReg(R4, 0x00000000)
T48C4 1830:995.882 - 0.016ms returns 0
T48C4 1830:995.894 JLINK_WriteReg(R5, 0x00000000)
T48C4 1830:995.905 - 0.016ms returns 0
T48C4 1830:995.917 JLINK_WriteReg(R6, 0x00000000)
T48C4 1830:995.928 - 0.016ms returns 0
T48C4 1830:995.941 JLINK_WriteReg(R7, 0x00000000)
T48C4 1830:995.951 - 0.016ms returns 0
T48C4 1830:995.964 JLINK_WriteReg(R8, 0x00000000)
T48C4 1830:995.997 - 0.039ms returns 0
T48C4 1830:996.013 JLINK_WriteReg(R9, 0x20001100)
T48C4 1830:996.025 - 0.018ms returns 0
T48C4 1830:996.038 JLINK_WriteReg(R10, 0x00000000)
T48C4 1830:996.051 - 0.019ms returns 0
T48C4 1830:996.065 JLINK_WriteReg(R11, 0x00000000)
T48C4 1830:996.077 - 0.017ms returns 0
T48C4 1830:996.090 JLINK_WriteReg(R12, 0x00000000)
T48C4 1830:996.102 - 0.017ms returns 0
T48C4 1830:996.115 JLINK_WriteReg(R13 (SP), 0x20003000)
T48C4 1830:996.128 - 0.018ms returns 0
T48C4 1830:996.142 JLINK_WriteReg(R14, 0x20001001)
T48C4 1830:996.154 - 0.017ms returns 0
T48C4 1830:996.166 JLINK_WriteReg(R15 (PC), 0x20001020)
T48C4 1830:996.178 - 0.017ms returns 0
T48C4 1830:996.192 JLINK_WriteReg(XPSR, 0x01000000)
T48C4 1830:996.203 - 0.017ms returns 0
T48C4 1830:996.217 JLINK_WriteReg(MSP, 0x20003000)
T48C4 1830:996.228 - 0.016ms returns 0
T48C4 1830:996.245 JLINK_WriteReg(PSP, 0x20003000)
T48C4 1830:996.257 - 0.017ms returns 0
T48C4 1830:996.272 JLINK_WriteReg(CFBP, 0x00000000)
T48C4 1830:996.283 - 0.017ms returns 0
T48C4 1830:996.297 JLINK_SetBPEx(Addr = 0x20001000, Type = 0xFFFFFFF2)
T48C4 1830:996.309 - 0.021ms returns 0x00000006
T48C4 1830:996.326 JLINK_Go()
T48C4 1830:996.344   CPU_ReadMem(4 bytes @ 0xE0001000)
T48C4 1830:996.683   CPU_WriteMem(4 bytes @ 0xE0001000)
T48C4 1830:998.876 - 2.562ms
T48C4 1830:998.901 JLINK_IsHalted()
T48C4 1831:000.836   CPU_ReadMem(2 bytes @ 0x20001000)
T48C4 1831:001.122 - 2.232ms returns TRUE
T48C4 1831:001.147 JLINK_ReadReg(R15 (PC))
T48C4 1831:001.160 - 0.019ms returns 0x20001000
T48C4 1831:001.176 JLINK_ClrBPEx(BPHandle = 0x00000006)
T48C4 1831:001.188 - 0.017ms returns 0x00
T48C4 1831:001.204 JLINK_ReadReg(R0)
T48C4 1831:001.215 - 0.017ms returns 0x00000001
T48C4 1831:001.231 JLINK_HasError()
T48C4 1831:001.247 JLINK_WriteReg(R0, 0x10041000)
T48C4 1831:001.259 - 0.017ms returns 0
T48C4 1831:001.274 JLINK_WriteReg(R1, 0x00000800)
T48C4 1831:001.285 - 0.017ms returns 0
T48C4 1831:001.300 JLINK_WriteReg(R2, 0x000000FF)
T48C4 1831:001.311 - 0.016ms returns 0
T48C4 1831:001.326 JLINK_WriteReg(R3, 0x00000000)
T48C4 1831:001.338 - 0.017ms returns 0
T48C4 1831:001.353 JLINK_WriteReg(R4, 0x00000000)
T48C4 1831:001.377 - 0.031ms returns 0
T48C4 1831:001.394 JLINK_WriteReg(R5, 0x00000000)
T48C4 1831:001.406 - 0.017ms returns 0
T48C4 1831:001.421 JLINK_WriteReg(R6, 0x00000000)
T48C4 1831:001.432 - 0.017ms returns 0
T48C4 1831:001.447 JLINK_WriteReg(R7, 0x00000000)
T48C4 1831:001.459 - 0.016ms returns 0
T48C4 1831:001.473 JLINK_WriteReg(R8, 0x00000000)
T48C4 1831:001.485 - 0.017ms returns 0
T48C4 1831:001.500 JLINK_WriteReg(R9, 0x20001100)
T48C4 1831:001.511 - 0.017ms returns 0
T48C4 1831:001.526 JLINK_WriteReg(R10, 0x00000000)
T48C4 1831:001.538 - 0.017ms returns 0
T48C4 1831:001.553 JLINK_WriteReg(R11, 0x00000000)
T48C4 1831:001.564 - 0.016ms returns 0
T48C4 1831:001.579 JLINK_WriteReg(R12, 0x00000000)
T48C4 1831:001.590 - 0.017ms returns 0
T48C4 1831:001.605 JLINK_WriteReg(R13 (SP), 0x20003000)
T48C4 1831:001.617 - 0.017ms returns 0
T48C4 1831:001.632 JLINK_WriteReg(R14, 0x20001001)
T48C4 1831:001.643 - 0.017ms returns 0
T48C4 1831:001.658 JLINK_WriteReg(R15 (PC), 0x20001072)
T48C4 1831:001.669 - 0.016ms returns 0
T48C4 1831:001.684 JLINK_WriteReg(XPSR, 0x01000000)
T48C4 1831:001.695 - 0.016ms returns 0
T48C4 1831:001.710 JLINK_WriteReg(MSP, 0x20003000)
T48C4 1831:001.722 - 0.017ms returns 0
T48C4 1831:001.736 JLINK_WriteReg(PSP, 0x20003000)
T48C4 1831:001.748 - 0.016ms returns 0
T48C4 1831:001.763 JLINK_WriteReg(CFBP, 0x00000000)
T48C4 1831:001.774 - 0.017ms returns 0
T48C4 1831:001.789 JLINK_SetBPEx(Addr = 0x20001000, Type = 0xFFFFFFF2)
T48C4 1831:001.801 - 0.018ms returns 0x00000007
T48C4 1831:001.816 JLINK_Go()
T48C4 1831:001.836   CPU_ReadMem(4 bytes @ 0xE0001000)
T48C4 1831:002.116   CPU_WriteMem(4 bytes @ 0xE0001000)
T48C4 1831:004.289 - 2.483ms
T48C4 1831:004.313 JLINK_IsHalted()
T48C4 1831:004.578 - 0.275ms returns FALSE
T48C4 1831:004.602 JLINK_HasError()
T48C4 1831:006.563 JLINK_IsHalted()
T48C4 1831:006.875 - 0.323ms returns FALSE
T48C4 1831:006.896 JLINK_HasError()
T48C4 1831:008.579 JLINK_IsHalted()
T48C4 1831:008.974 - 0.406ms returns FALSE
T48C4 1831:008.994 JLINK_HasError()
T48C4 1831:010.567 JLINK_IsHalted()
T48C4 1831:010.970 - 0.414ms returns FALSE
T48C4 1831:010.991 JLINK_HasError()
T48C4 1831:012.555 JLINK_IsHalted()
T48C4 1831:013.046 - 0.505ms returns FALSE
T48C4 1831:013.082 JLINK_HasError()
T48C4 1831:014.468 JLINK_IsHalted()
T48C4 1831:014.893 - 0.437ms returns FALSE
T48C4 1831:014.917 JLINK_HasError()
T48C4 1831:017.007 JLINK_IsHalted()
T48C4 1831:017.440 - 0.445ms returns FALSE
T48C4 1831:017.478 JLINK_HasError()
T48C4 1831:019.014 JLINK_IsHalted()
T48C4 1831:019.605 - 0.609ms returns FALSE
T48C4 1831:019.635 JLINK_HasError()
T48C4 1831:021.042 JLINK_IsHalted()
T48C4 1831:021.756 - 0.747ms returns FALSE
T48C4 1831:021.804 JLINK_HasError()
T48C4 1831:023.055 JLINK_IsHalted()
T48C4 1831:023.705 - 0.686ms returns FALSE
T48C4 1831:023.766 JLINK_HasError()
T48C4 1831:024.942 JLINK_IsHalted()
T48C4 1831:025.517 - 0.593ms returns FALSE
T48C4 1831:025.555 JLINK_HasError()
T48C4 1831:033.964 JLINK_IsHalted()
T48C4 1831:036.301   CPU_ReadMem(2 bytes @ 0x20001000)
T48C4 1831:036.770 - 2.820ms returns TRUE
T48C4 1831:036.794 JLINK_ReadReg(R15 (PC))
T48C4 1831:036.809 - 0.020ms returns 0x20001000
T48C4 1831:036.823 JLINK_ClrBPEx(BPHandle = 0x00000007)
T48C4 1831:036.835 - 0.017ms returns 0x00
T48C4 1831:036.848 JLINK_ReadReg(R0)
T48C4 1831:036.860 - 0.017ms returns 0x00000000
T48C4 1831:037.555 JLINK_HasError()
T48C4 1831:037.575 JLINK_WriteReg(R0, 0x10041800)
T48C4 1831:037.588 - 0.018ms returns 0
T48C4 1831:037.601 JLINK_WriteReg(R1, 0x00000800)
T48C4 1831:037.612 - 0.016ms returns 0
T48C4 1831:037.624 JLINK_WriteReg(R2, 0x000000FF)
T48C4 1831:037.635 - 0.016ms returns 0
T48C4 1831:037.648 JLINK_WriteReg(R3, 0x00000000)
T48C4 1831:037.658 - 0.016ms returns 0
T48C4 1831:037.671 JLINK_WriteReg(R4, 0x00000000)
T48C4 1831:037.682 - 0.016ms returns 0
T48C4 1831:037.694 JLINK_WriteReg(R5, 0x00000000)
T48C4 1831:037.705 - 0.016ms returns 0
T48C4 1831:037.718 JLINK_WriteReg(R6, 0x00000000)
T48C4 1831:037.728 - 0.057ms returns 0
T48C4 1831:037.785 JLINK_WriteReg(R7, 0x00000000)
T48C4 1831:037.797 - 0.016ms returns 0
T48C4 1831:037.809 JLINK_WriteReg(R8, 0x00000000)
T48C4 1831:037.820 - 0.016ms returns 0
T48C4 1831:037.833 JLINK_WriteReg(R9, 0x20001100)
T48C4 1831:037.844 - 0.016ms returns 0
T48C4 1831:037.856 JLINK_WriteReg(R10, 0x00000000)
T48C4 1831:037.867 - 0.016ms returns 0
T48C4 1831:037.880 JLINK_WriteReg(R11, 0x00000000)
T48C4 1831:037.891 - 0.016ms returns 0
T48C4 1831:037.903 JLINK_WriteReg(R12, 0x00000000)
T48C4 1831:037.914 - 0.016ms returns 0
T48C4 1831:037.926 JLINK_WriteReg(R13 (SP), 0x20003000)
T48C4 1831:037.938 - 0.016ms returns 0
T48C4 1831:037.950 JLINK_WriteReg(R14, 0x20001001)
T48C4 1831:037.961 - 0.016ms returns 0
T48C4 1831:037.974 JLINK_WriteReg(R15 (PC), 0x20001020)
T48C4 1831:037.985 - 0.016ms returns 0
T48C4 1831:037.997 JLINK_WriteReg(XPSR, 0x01000000)
T48C4 1831:038.008 - 0.016ms returns 0
T48C4 1831:038.020 JLINK_WriteReg(MSP, 0x20003000)
T48C4 1831:038.031 - 0.016ms returns 0
T48C4 1831:038.044 JLINK_WriteReg(PSP, 0x20003000)
T48C4 1831:038.055 - 0.016ms returns 0
T48C4 1831:038.067 JLINK_WriteReg(CFBP, 0x00000000)
T48C4 1831:038.078 - 0.016ms returns 0
T48C4 1831:038.091 JLINK_SetBPEx(Addr = 0x20001000, Type = 0xFFFFFFF2)
T48C4 1831:038.103 - 0.017ms returns 0x00000008
T48C4 1831:038.116 JLINK_Go()
T48C4 1831:038.136   CPU_ReadMem(4 bytes @ 0xE0001000)
T48C4 1831:038.488   CPU_WriteMem(4 bytes @ 0xE0001000)
T48C4 1831:041.125 - 3.022ms
T48C4 1831:041.149 JLINK_IsHalted()
T48C4 1831:043.364   CPU_ReadMem(2 bytes @ 0x20001000)
T48C4 1831:043.778 - 2.642ms returns TRUE
T48C4 1831:043.802 JLINK_ReadReg(R15 (PC))
T48C4 1831:043.815 - 0.019ms returns 0x20001000
T48C4 1831:043.829 JLINK_ClrBPEx(BPHandle = 0x00000008)
T48C4 1831:043.841 - 0.017ms returns 0x00
T48C4 1831:043.854 JLINK_ReadReg(R0)
T48C4 1831:043.866 - 0.017ms returns 0x00000001
T48C4 1831:043.879 JLINK_HasError()
T48C4 1831:043.892 JLINK_WriteReg(R0, 0x10041800)
T48C4 1831:043.904 - 0.017ms returns 0
T48C4 1831:043.917 JLINK_WriteReg(R1, 0x00000800)
T48C4 1831:043.929 - 0.016ms returns 0
T48C4 1831:043.941 JLINK_WriteReg(R2, 0x000000FF)
T48C4 1831:043.953 - 0.016ms returns 0
T48C4 1831:043.966 JLINK_WriteReg(R3, 0x00000000)
T48C4 1831:043.977 - 0.017ms returns 0
T48C4 1831:043.990 JLINK_WriteReg(R4, 0x00000000)
T48C4 1831:044.001 - 0.016ms returns 0
T48C4 1831:044.014 JLINK_WriteReg(R5, 0x00000000)
T48C4 1831:044.025 - 0.016ms returns 0
T48C4 1831:044.037 JLINK_WriteReg(R6, 0x00000000)
T48C4 1831:044.049 - 0.017ms returns 0
T48C4 1831:044.062 JLINK_WriteReg(R7, 0x00000000)
T48C4 1831:044.073 - 0.016ms returns 0
T48C4 1831:044.086 JLINK_WriteReg(R8, 0x00000000)
T48C4 1831:044.098 - 0.016ms returns 0
T48C4 1831:044.110 JLINK_WriteReg(R9, 0x20001100)
T48C4 1831:044.121 - 0.016ms returns 0
T48C4 1831:044.134 JLINK_WriteReg(R10, 0x00000000)
T48C4 1831:044.145 - 0.017ms returns 0
T48C4 1831:044.158 JLINK_WriteReg(R11, 0x00000000)
T48C4 1831:044.169 - 0.016ms returns 0
T48C4 1831:044.182 JLINK_WriteReg(R12, 0x00000000)
T48C4 1831:044.193 - 0.016ms returns 0
T48C4 1831:044.206 JLINK_WriteReg(R13 (SP), 0x20003000)
T48C4 1831:044.217 - 0.017ms returns 0
T48C4 1831:044.230 JLINK_WriteReg(R14, 0x20001001)
T48C4 1831:044.241 - 0.016ms returns 0
T48C4 1831:044.254 JLINK_WriteReg(R15 (PC), 0x20001072)
T48C4 1831:044.265 - 0.016ms returns 0
T48C4 1831:044.278 JLINK_WriteReg(XPSR, 0x01000000)
T48C4 1831:044.289 - 0.016ms returns 0
T48C4 1831:044.302 JLINK_WriteReg(MSP, 0x20003000)
T48C4 1831:044.313 - 0.016ms returns 0
T48C4 1831:044.326 JLINK_WriteReg(PSP, 0x20003000)
T48C4 1831:044.337 - 0.016ms returns 0
T48C4 1831:044.350 JLINK_WriteReg(CFBP, 0x00000000)
T48C4 1831:044.361 - 0.016ms returns 0
T48C4 1831:044.374 JLINK_SetBPEx(Addr = 0x20001000, Type = 0xFFFFFFF2)
T48C4 1831:044.386 - 0.017ms returns 0x00000009
T48C4 1831:044.399 JLINK_Go()
T48C4 1831:044.416   CPU_ReadMem(4 bytes @ 0xE0001000)
T48C4 1831:044.832   CPU_WriteMem(4 bytes @ 0xE0001000)
T48C4 1831:047.597 - 3.216ms
T48C4 1831:047.628 JLINK_IsHalted()
T48C4 1831:048.071 - 0.454ms returns FALSE
T48C4 1831:048.092 JLINK_HasError()
T48C4 1831:050.133 JLINK_IsHalted()
T48C4 1831:050.549 - 0.426ms returns FALSE
T48C4 1831:050.568 JLINK_HasError()
T48C4 1831:052.132 JLINK_IsHalted()
T48C4 1831:052.502 - 0.380ms returns FALSE
T48C4 1831:052.521 JLINK_HasError()
T48C4 1831:054.603 JLINK_IsHalted()
T48C4 1831:055.109 - 0.533ms returns FALSE
T48C4 1831:055.147 JLINK_HasError()
T48C4 1831:067.664 JLINK_IsHalted()
T48C4 1831:068.297 - 0.653ms returns FALSE
T48C4 1831:068.330 JLINK_HasError()
T48C4 1831:069.862 JLINK_IsHalted()
T48C4 1831:072.525   CPU_ReadMem(2 bytes @ 0x20001000)
T48C4 1831:073.483 - 3.673ms returns TRUE
T48C4 1831:073.551 JLINK_ReadReg(R15 (PC))
T48C4 1831:073.567 - 0.022ms returns 0x20001000
T48C4 1831:073.581 JLINK_ClrBPEx(BPHandle = 0x00000009)
T48C4 1831:073.593 - 0.017ms returns 0x00
T48C4 1831:073.606 JLINK_ReadReg(R0)
T48C4 1831:073.617 - 0.016ms returns 0x00000000
T48C4 1831:074.460 JLINK_HasError()
T48C4 1831:074.489 JLINK_WriteReg(R0, 0x10042000)
T48C4 1831:074.502 - 0.019ms returns 0
T48C4 1831:074.516 JLINK_WriteReg(R1, 0x00000800)
T48C4 1831:074.527 - 0.017ms returns 0
T48C4 1831:074.540 JLINK_WriteReg(R2, 0x000000FF)
T48C4 1831:074.551 - 0.016ms returns 0
T48C4 1831:074.563 JLINK_WriteReg(R3, 0x00000000)
T48C4 1831:074.574 - 0.016ms returns 0
T48C4 1831:074.587 JLINK_WriteReg(R4, 0x00000000)
T48C4 1831:074.600 - 0.018ms returns 0
T48C4 1831:074.612 JLINK_WriteReg(R5, 0x00000000)
T48C4 1831:074.623 - 0.016ms returns 0
T48C4 1831:074.635 JLINK_WriteReg(R6, 0x00000000)
T48C4 1831:074.646 - 0.016ms returns 0
T48C4 1831:074.659 JLINK_WriteReg(R7, 0x00000000)
T48C4 1831:074.671 - 0.017ms returns 0
T48C4 1831:074.684 JLINK_WriteReg(R8, 0x00000000)
T48C4 1831:074.695 - 0.016ms returns 0
T48C4 1831:074.707 JLINK_WriteReg(R9, 0x20001100)
T48C4 1831:074.718 - 0.016ms returns 0
T48C4 1831:074.730 JLINK_WriteReg(R10, 0x00000000)
T48C4 1831:074.741 - 0.016ms returns 0
T48C4 1831:074.754 JLINK_WriteReg(R11, 0x00000000)
T48C4 1831:074.765 - 0.016ms returns 0
T48C4 1831:074.777 JLINK_WriteReg(R12, 0x00000000)
T48C4 1831:074.788 - 0.016ms returns 0
T48C4 1831:074.800 JLINK_WriteReg(R13 (SP), 0x20003000)
T48C4 1831:074.812 - 0.016ms returns 0
T48C4 1831:074.824 JLINK_WriteReg(R14, 0x20001001)
T48C4 1831:074.835 - 0.016ms returns 0
T48C4 1831:074.848 JLINK_WriteReg(R15 (PC), 0x20001020)
T48C4 1831:074.859 - 0.016ms returns 0
T48C4 1831:074.871 JLINK_WriteReg(XPSR, 0x01000000)
T48C4 1831:074.882 - 0.016ms returns 0
T48C4 1831:074.895 JLINK_WriteReg(MSP, 0x20003000)
T48C4 1831:074.906 - 0.016ms returns 0
T48C4 1831:074.918 JLINK_WriteReg(PSP, 0x20003000)
T48C4 1831:074.929 - 0.016ms returns 0
T48C4 1831:074.942 JLINK_WriteReg(CFBP, 0x00000000)
T48C4 1831:074.953 - 0.016ms returns 0
T48C4 1831:074.967 JLINK_SetBPEx(Addr = 0x20001000, Type = 0xFFFFFFF2)
T48C4 1831:074.980 - 0.017ms returns 0x0000000A
T48C4 1831:074.993 JLINK_Go()
T48C4 1831:075.013   CPU_ReadMem(4 bytes @ 0xE0001000)
T48C4 1831:075.526   CPU_WriteMem(4 bytes @ 0xE0001000)
T48C4 1831:079.101 - 4.139ms
T48C4 1831:079.146 JLINK_IsHalted()
T48C4 1831:081.505   CPU_ReadMem(2 bytes @ 0x20001000)
T48C4 1831:082.006 - 2.873ms returns TRUE
T48C4 1831:082.045 JLINK_ReadReg(R15 (PC))
T48C4 1831:082.061 - 0.021ms returns 0x20001000
T48C4 1831:082.075 JLINK_ClrBPEx(BPHandle = 0x0000000A)
T48C4 1831:082.087 - 0.018ms returns 0x00
T48C4 1831:082.103 JLINK_ReadReg(R0)
T48C4 1831:082.115 - 0.017ms returns 0x00000001
T48C4 1831:082.129 JLINK_HasError()
T48C4 1831:082.143 JLINK_WriteReg(R0, 0x10042000)
T48C4 1831:082.155 - 0.017ms returns 0
T48C4 1831:082.170 JLINK_WriteReg(R1, 0x00000800)
T48C4 1831:082.182 - 0.017ms returns 0
T48C4 1831:082.195 JLINK_WriteReg(R2, 0x000000FF)
T48C4 1831:082.206 - 0.016ms returns 0
T48C4 1831:082.219 JLINK_WriteReg(R3, 0x00000000)
T48C4 1831:082.230 - 0.016ms returns 0
T48C4 1831:082.245 JLINK_WriteReg(R4, 0x00000000)
T48C4 1831:082.257 - 0.017ms returns 0
T48C4 1831:082.273 JLINK_WriteReg(R5, 0x00000000)
T48C4 1831:082.286 - 0.019ms returns 0
T48C4 1831:082.299 JLINK_WriteReg(R6, 0x00000000)
T48C4 1831:082.310 - 0.017ms returns 0
T48C4 1831:082.325 JLINK_WriteReg(R7, 0x00000000)
T48C4 1831:082.337 - 0.017ms returns 0
T48C4 1831:082.349 JLINK_WriteReg(R8, 0x00000000)
T48C4 1831:082.362 - 0.018ms returns 0
T48C4 1831:082.377 JLINK_WriteReg(R9, 0x20001100)
T48C4 1831:082.388 - 0.017ms returns 0
T48C4 1831:082.403 JLINK_WriteReg(R10, 0x00000000)
T48C4 1831:082.415 - 0.016ms returns 0
T48C4 1831:082.427 JLINK_WriteReg(R11, 0x00000000)
T48C4 1831:082.439 - 0.016ms returns 0
T48C4 1831:082.451 JLINK_WriteReg(R12, 0x00000000)
T48C4 1831:082.463 - 0.016ms returns 0
T48C4 1831:082.478 JLINK_WriteReg(R13 (SP), 0x20003000)
T48C4 1831:082.490 - 0.017ms returns 0
T48C4 1831:082.503 JLINK_WriteReg(R14, 0x20001001)
T48C4 1831:082.514 - 0.016ms returns 0
T48C4 1831:082.526 JLINK_WriteReg(R15 (PC), 0x20001072)
T48C4 1831:082.538 - 0.016ms returns 0
T48C4 1831:082.553 JLINK_WriteReg(XPSR, 0x01000000)
T48C4 1831:082.564 - 0.017ms returns 0
T48C4 1831:082.577 JLINK_WriteReg(MSP, 0x20003000)
T48C4 1831:082.588 - 0.016ms returns 0
T48C4 1831:082.603 JLINK_WriteReg(PSP, 0x20003000)
T48C4 1831:082.615 - 0.017ms returns 0
T48C4 1831:082.630 JLINK_WriteReg(CFBP, 0x00000000)
T48C4 1831:082.641 - 0.017ms returns 0
T48C4 1831:082.654 JLINK_SetBPEx(Addr = 0x20001000, Type = 0xFFFFFFF2)
T48C4 1831:082.666 - 0.017ms returns 0x0000000B
T48C4 1831:082.679 JLINK_Go()
T48C4 1831:082.697   CPU_ReadMem(4 bytes @ 0xE0001000)
T48C4 1831:083.237   CPU_WriteMem(4 bytes @ 0xE0001000)
T48C4 1831:086.059 - 3.392ms
T48C4 1831:086.087 JLINK_IsHalted()
T48C4 1831:086.510 - 0.435ms returns FALSE
T48C4 1831:086.577 JLINK_HasError()
T48C4 1831:089.606 JLINK_IsHalted()
T48C4 1831:090.280 - 0.685ms returns FALSE
T48C4 1831:090.301 JLINK_HasError()
T48C4 1831:091.606 JLINK_IsHalted()
T48C4 1831:092.097 - 0.501ms returns FALSE
T48C4 1831:092.117 JLINK_HasError()
T48C4 1831:093.989 JLINK_IsHalted()
T48C4 1831:094.669 - 0.693ms returns FALSE
T48C4 1831:094.693 JLINK_HasError()
T48C4 1831:096.002 JLINK_IsHalted()
T48C4 1831:096.757 - 0.768ms returns FALSE
T48C4 1831:096.786 JLINK_HasError()
T48C4 1831:097.994 JLINK_IsHalted()
T48C4 1831:098.662 - 0.681ms returns FALSE
T48C4 1831:098.685 JLINK_HasError()
T48C4 1831:099.995 JLINK_IsHalted()
T48C4 1831:100.682 - 0.700ms returns FALSE
T48C4 1831:100.706 JLINK_HasError()
T48C4 1831:101.788 JLINK_IsHalted()
T48C4 1831:102.269 - 0.492ms returns FALSE
T48C4 1831:102.290 JLINK_HasError()
T48C4 1831:103.991 JLINK_IsHalted()
T48C4 1831:104.729 - 0.749ms returns FALSE
T48C4 1831:104.750 JLINK_HasError()
T48C4 1831:106.988 JLINK_IsHalted()
T48C4 1831:107.658 - 0.680ms returns FALSE
T48C4 1831:107.679 JLINK_HasError()
T48C4 1831:109.006 JLINK_IsHalted()
T48C4 1831:111.504   CPU_ReadMem(2 bytes @ 0x20001000)
T48C4 1831:112.241 - 3.245ms returns TRUE
T48C4 1831:112.266 JLINK_ReadReg(R15 (PC))
T48C4 1831:112.280 - 0.019ms returns 0x20001000
T48C4 1831:112.293 JLINK_ClrBPEx(BPHandle = 0x0000000B)
T48C4 1831:112.304 - 0.016ms returns 0x00
T48C4 1831:112.320 JLINK_ReadReg(R0)
T48C4 1831:112.331 - 0.016ms returns 0x00000000
T48C4 1831:113.061 JLINK_HasError()
T48C4 1831:113.081 JLINK_WriteReg(R0, 0x10042800)
T48C4 1831:113.093 - 0.018ms returns 0
T48C4 1831:113.106 JLINK_WriteReg(R1, 0x00000800)
T48C4 1831:113.117 - 0.016ms returns 0
T48C4 1831:113.130 JLINK_WriteReg(R2, 0x000000FF)
T48C4 1831:113.141 - 0.016ms returns 0
T48C4 1831:113.153 JLINK_WriteReg(R3, 0x00000000)
T48C4 1831:113.164 - 0.016ms returns 0
T48C4 1831:113.177 JLINK_WriteReg(R4, 0x00000000)
T48C4 1831:113.187 - 0.016ms returns 0
T48C4 1831:113.203 JLINK_WriteReg(R5, 0x00000000)
T48C4 1831:113.217 - 0.020ms returns 0
T48C4 1831:113.230 JLINK_WriteReg(R6, 0x00000000)
T48C4 1831:113.241 - 0.016ms returns 0
T48C4 1831:113.253 JLINK_WriteReg(R7, 0x00000000)
T48C4 1831:113.264 - 0.016ms returns 0
T48C4 1831:113.276 JLINK_WriteReg(R8, 0x00000000)
T48C4 1831:113.290 - 0.021ms returns 0
T48C4 1831:113.306 JLINK_WriteReg(R9, 0x20001100)
T48C4 1831:113.316 - 0.016ms returns 0
T48C4 1831:113.329 JLINK_WriteReg(R10, 0x00000000)
T48C4 1831:113.340 - 0.016ms returns 0
T48C4 1831:113.352 JLINK_WriteReg(R11, 0x00000000)
T48C4 1831:113.363 - 0.016ms returns 0
T48C4 1831:113.375 JLINK_WriteReg(R12, 0x00000000)
T48C4 1831:113.386 - 0.016ms returns 0
T48C4 1831:113.399 JLINK_WriteReg(R13 (SP), 0x20003000)
T48C4 1831:113.410 - 0.016ms returns 0
T48C4 1831:113.422 JLINK_WriteReg(R14, 0x20001001)
T48C4 1831:113.433 - 0.016ms returns 0
T48C4 1831:113.446 JLINK_WriteReg(R15 (PC), 0x20001020)
T48C4 1831:113.457 - 0.016ms returns 0
T48C4 1831:113.469 JLINK_WriteReg(XPSR, 0x01000000)
T48C4 1831:113.480 - 0.016ms returns 0
T48C4 1831:113.492 JLINK_WriteReg(MSP, 0x20003000)
T48C4 1831:113.503 - 0.016ms returns 0
T48C4 1831:113.515 JLINK_WriteReg(PSP, 0x20003000)
T48C4 1831:113.526 - 0.016ms returns 0
T48C4 1831:113.539 JLINK_WriteReg(CFBP, 0x00000000)
T48C4 1831:113.550 - 0.016ms returns 0
T48C4 1831:113.562 JLINK_SetBPEx(Addr = 0x20001000, Type = 0xFFFFFFF2)
T48C4 1831:113.576 - 0.019ms returns 0x0000000C
T48C4 1831:113.589 JLINK_Go()
T48C4 1831:113.606   CPU_ReadMem(4 bytes @ 0xE0001000)
T48C4 1831:114.124   CPU_WriteMem(4 bytes @ 0xE0001000)
T48C4 1831:116.961 - 3.386ms
T48C4 1831:116.986 JLINK_IsHalted()
T48C4 1831:119.289   CPU_ReadMem(2 bytes @ 0x20001000)
T48C4 1831:119.647 - 2.671ms returns TRUE
T48C4 1831:119.669 JLINK_ReadReg(R15 (PC))
T48C4 1831:119.682 - 0.019ms returns 0x20001000
T48C4 1831:119.696 JLINK_ClrBPEx(BPHandle = 0x0000000C)
T48C4 1831:119.708 - 0.017ms returns 0x00
T48C4 1831:119.722 JLINK_ReadReg(R0)
T48C4 1831:119.733 - 0.017ms returns 0x00000001
T48C4 1831:119.748 JLINK_HasError()
T48C4 1831:119.762 JLINK_WriteReg(R0, 0x10042800)
T48C4 1831:119.774 - 0.017ms returns 0
T48C4 1831:119.787 JLINK_WriteReg(R1, 0x00000800)
T48C4 1831:119.799 - 0.017ms returns 0
T48C4 1831:119.812 JLINK_WriteReg(R2, 0x000000FF)
T48C4 1831:119.824 - 0.017ms returns 0
T48C4 1831:119.837 JLINK_WriteReg(R3, 0x00000000)
T48C4 1831:119.848 - 0.017ms returns 0
T48C4 1831:119.861 JLINK_WriteReg(R4, 0x00000000)
T48C4 1831:119.874 - 0.020ms returns 0
T48C4 1831:119.892 JLINK_WriteReg(R5, 0x00000000)
T48C4 1831:119.912 - 0.026ms returns 0
T48C4 1831:119.926 JLINK_WriteReg(R6, 0x00000000)
T48C4 1831:119.937 - 0.016ms returns 0
T48C4 1831:119.949 JLINK_WriteReg(R7, 0x00000000)
T48C4 1831:119.961 - 0.016ms returns 0
T48C4 1831:119.974 JLINK_WriteReg(R8, 0x00000000)
T48C4 1831:119.986 - 0.017ms returns 0
T48C4 1831:119.998 JLINK_WriteReg(R9, 0x20001100)
T48C4 1831:120.015 - 0.029ms returns 0
T48C4 1831:120.039 JLINK_WriteReg(R10, 0x00000000)
T48C4 1831:120.051 - 0.017ms returns 0
T48C4 1831:120.063 JLINK_WriteReg(R11, 0x00000000)
T48C4 1831:120.075 - 0.016ms returns 0
T48C4 1831:120.087 JLINK_WriteReg(R12, 0x00000000)
T48C4 1831:120.098 - 0.016ms returns 0
T48C4 1831:120.111 JLINK_WriteReg(R13 (SP), 0x20003000)
T48C4 1831:120.123 - 0.017ms returns 0
T48C4 1831:120.136 JLINK_WriteReg(R14, 0x20001001)
T48C4 1831:120.148 - 0.019ms returns 0
T48C4 1831:120.169 JLINK_WriteReg(R15 (PC), 0x20001072)
T48C4 1831:120.188 - 0.024ms returns 0
T48C4 1831:120.205 JLINK_WriteReg(XPSR, 0x01000000)
T48C4 1831:120.219 - 0.018ms returns 0
T48C4 1831:120.234 JLINK_WriteReg(MSP, 0x20003000)
T48C4 1831:120.256 - 0.028ms returns 0
T48C4 1831:120.270 JLINK_WriteReg(PSP, 0x20003000)
T48C4 1831:120.281 - 0.017ms returns 0
T48C4 1831:120.297 JLINK_WriteReg(CFBP, 0x00000000)
T48C4 1831:120.318 - 0.031ms returns 0
T48C4 1831:120.341 JLINK_SetBPEx(Addr = 0x20001000, Type = 0xFFFFFFF2)
T48C4 1831:120.354 - 0.018ms returns 0x0000000D
T48C4 1831:120.367 JLINK_Go()
T48C4 1831:120.386   CPU_ReadMem(4 bytes @ 0xE0001000)
T48C4 1831:120.695   CPU_WriteMem(4 bytes @ 0xE0001000)
T48C4 1831:122.969 - 2.612ms
T48C4 1831:122.990 JLINK_IsHalted()
T48C4 1831:123.260 - 0.280ms returns FALSE
T48C4 1831:123.281 JLINK_HasError()
T48C4 1831:125.353 JLINK_IsHalted()
T48C4 1831:125.679 - 0.343ms returns FALSE
T48C4 1831:125.705 JLINK_HasError()
T48C4 1831:127.782 JLINK_IsHalted()
T48C4 1831:128.353 - 0.586ms returns FALSE
T48C4 1831:128.379 JLINK_HasError()
T48C4 1831:129.997 JLINK_IsHalted()
T48C4 1831:130.597 - 0.634ms returns FALSE
T48C4 1831:130.644 JLINK_HasError()
T48C4 1831:132.044 JLINK_IsHalted()
T48C4 1831:132.629 - 0.615ms returns FALSE
T48C4 1831:132.699 JLINK_HasError()
T48C4 1831:134.026 JLINK_IsHalted()
T48C4 1831:134.627 - 0.625ms returns FALSE
T48C4 1831:134.666 JLINK_HasError()
T48C4 1831:136.080 JLINK_IsHalted()
T48C4 1831:136.595 - 0.535ms returns FALSE
T48C4 1831:136.628 JLINK_HasError()
T48C4 1831:138.020 JLINK_IsHalted()
T48C4 1831:138.633 - 0.633ms returns FALSE
T48C4 1831:138.675 JLINK_HasError()
T48C4 1831:139.977 JLINK_IsHalted()
T48C4 1831:140.530 - 0.572ms returns FALSE
T48C4 1831:140.562 JLINK_HasError()
T48C4 1831:142.010 JLINK_IsHalted()
T48C4 1831:142.577 - 0.585ms returns FALSE
T48C4 1831:142.609 JLINK_HasError()
T48C4 1831:143.890 JLINK_IsHalted()
T48C4 1831:144.472 - 0.600ms returns FALSE
T48C4 1831:144.504 JLINK_HasError()
T48C4 1831:145.884 JLINK_IsHalted()
T48C4 1831:148.460   CPU_ReadMem(2 bytes @ 0x20001000)
T48C4 1831:149.074 - 3.215ms returns TRUE
T48C4 1831:149.115 JLINK_ReadReg(R15 (PC))
T48C4 1831:149.132 - 0.023ms returns 0x20001000
T48C4 1831:149.148 JLINK_ClrBPEx(BPHandle = 0x0000000D)
T48C4 1831:149.163 - 0.021ms returns 0x00
T48C4 1831:149.185 JLINK_ReadReg(R0)
T48C4 1831:149.200 - 0.021ms returns 0x00000000
T48C4 1831:150.449 JLINK_HasError()
T48C4 1831:150.477 JLINK_WriteReg(R0, 0x10043000)
T48C4 1831:150.490 - 0.019ms returns 0
T48C4 1831:150.504 JLINK_WriteReg(R1, 0x00000800)
T48C4 1831:150.515 - 0.016ms returns 0
T48C4 1831:150.527 JLINK_WriteReg(R2, 0x000000FF)
T48C4 1831:150.538 - 0.016ms returns 0
T48C4 1831:150.550 JLINK_WriteReg(R3, 0x00000000)
